time	V(amp_out)	V(bp_out)	V(ecg)	V(rb_out)
0.000000000000000e+000	1.883587e-003	4.869395e-003	0.000000e+000	2.575967e-003
1.253990382818126e-004	1.719511e-003	4.849385e-003	1.282832e-007	2.412280e-003
2.507980765636252e-004	1.555234e-003	4.812871e-003	2.565664e-007	2.248476e-003
3.761971148454377e-004	1.390757e-003	4.759855e-003	3.848496e-007	2.084555e-003
5.015961531272503e-004	1.226079e-003	4.690337e-003	5.131329e-007	1.920516e-003
6.269951914090630e-004	1.061200e-003	4.604316e-003	6.414161e-007	1.756360e-003
7.523942296908755e-004	8.961203e-004	4.501792e-003	7.696993e-007	1.592087e-003
8.777932679726879e-004	7.308397e-004	4.382766e-003	8.979825e-007	1.427696e-003
1.608306395572866e-003	-1.051819e-004	3.693191e-003	1.645297e-006	5.985646e-004
2.267313083612400e-003	-6.778131e-004	3.068793e-003	2.319461e-006	3.361691e-005
3.069966939854529e-003	-1.097433e-003	2.428571e-003	3.140576e-006	-3.760619e-004
3.532327235620891e-003	-1.183433e-003	2.164752e-003	3.613571e-006	-4.567790e-004
3.788886708618350e-003	-1.151717e-003	2.080327e-003	3.876031e-006	-4.226416e-004
4.107218913245906e-003	-1.037944e-003	2.039388e-003	4.201685e-006	-3.065920e-004
4.394567911629175e-003	-8.707275e-004	2.060600e-003	4.495643e-006	-1.381299e-004
4.787586382430914e-003	-5.284681e-004	2.196329e-003	4.897701e-006	2.041041e-004
5.424168647076046e-003	2.686759e-004	2.657557e-003	5.548924e-006	9.966122e-004
6.400731147076046e-003	1.916393e-003	3.819156e-003	6.547948e-006	2.627357e-003
7.377293647076046e-003	3.948267e-003	5.445194e-003	7.546972e-006	4.630753e-003
8.353856147076046e-003	6.214204e-003	7.438167e-003	8.545995e-006	6.857814e-003
9.330418647076046e-003	8.501739e-003	9.606604e-003	9.545019e-006	9.100509e-003
1.009765625000000e-002	1.020115e-002	1.132512e-002	1.032536e-005	1.076352e-002
1.068359375000000e-002	1.124913e-002	1.250432e-002	1.089753e-005	1.178735e-002
1.146484375000000e-002	1.240165e-002	1.389463e-002	1.166042e-005	1.291374e-002
1.206693327413771e-002	1.304720e-002	1.477575e-002	1.224836e-005	1.354602e-002
1.270090602862576e-002	1.341027e-002	1.543388e-002	1.286743e-005	1.390550e-002
1.307701835438027e-002	1.347729e-002	1.568853e-002	1.323471e-005	1.397592e-002
1.368671713634131e-002	1.335179e-002	1.587345e-002	1.383008e-005	1.386552e-002
1.465772799273758e-002	1.273024e-002	1.572763e-002	1.477827e-005	1.328685e-002
1.563429049273758e-002	1.171295e-002	1.512013e-002	1.573188e-005	1.233248e-002
1.661085299273758e-002	1.044482e-002	1.413771e-002	1.668550e-005	1.114286e-002
1.758741549273758e-002	9.159707e-003	1.297393e-002	1.763911e-005	9.942017e-003
1.856397799273758e-002	8.094482e-003	1.184637e-002	1.859272e-005	8.954975e-003
1.954047558534837e-002	7.375200e-003	1.090408e-002	1.954627e-005	8.299823e-003
2.000000000000000e-002	7.188692e-003	1.056061e-002	1.999500e-005	8.136560e-003
2.029296875000000e-002	7.292045e-003	1.046289e-002	2.047181e-005	8.247650e-003
2.063700294394473e-002	7.492502e-003	1.043293e-002	2.103172e-005	8.453114e-003
2.101024836675427e-002	7.794931e-003	1.049594e-002	2.163918e-005	8.755849e-003
2.137132496796390e-002	8.194146e-003	1.067009e-002	2.222683e-005	9.148710e-003
2.195704235559514e-002	9.065246e-003	1.118337e-002	2.318009e-005	9.995029e-003
2.289216025831300e-002	1.085790e-002	1.242769e-002	2.470199e-005	1.172088e-002
2.386872275831300e-002	1.312907e-002	1.418658e-002	2.629135e-005	1.389338e-002
2.484528525831300e-002	1.566851e-002	1.632434e-002	2.788070e-005	1.631233e-002
2.582184775831300e-002	1.824934e-002	1.865790e-002	2.947006e-005	1.876573e-002
2.679841025831300e-002	2.063343e-002	2.097524e-002	3.105941e-005	2.103290e-002
2.777497275831300e-002	2.268142e-002	2.312205e-002	3.264877e-005	2.298607e-002
2.858999266688951e-002	2.398031e-002	2.463765e-002	3.397521e-005	2.423543e-002
2.940265941594433e-002	2.475089e-002	2.573389e-002	3.529783e-005	2.499800e-002
3.006446182732182e-002	2.511533e-002	2.634929e-002	3.651579e-005	2.538311e-002
3.096692740982736e-002	2.595852e-002	2.712069e-002	3.995689e-005	2.629996e-002
3.194348990982736e-002	2.642704e-002	2.782702e-002	4.368053e-005	2.688494e-002
3.285839481932714e-002	2.661929e-002	2.828472e-002	4.716906e-005	2.720785e-002
3.454540115520506e-002	2.683004e-002	2.873162e-002	5.360162e-005	2.767671e-002
3.552196365520506e-002	2.726751e-002	2.905579e-002	5.732525e-005	2.823888e-002
3.638636549552794e-002	2.796646e-002	2.951796e-002	6.062121e-005	2.902169e-002
3.702355141212612e-002	2.879605e-002	3.007278e-002	6.305080e-005	2.988522e-002
3.768127296719191e-002	2.999898e-002	3.091624e-002	6.555869e-005	3.109070e-002
3.863516106840863e-002	3.232526e-002	3.264102e-002	6.919587e-005	3.336390e-002
3.941617084195738e-002	3.462146e-002	3.441755e-002	7.217386e-005	3.557747e-002
4.007835669640469e-002	3.670765e-002	3.612610e-002	7.454574e-005	3.757218e-002
4.117535044607041e-002	3.967499e-002	3.896965e-002	7.658616e-005	4.034178e-002
4.215191294607041e-002	4.239974e-002	4.142349e-002	7.840256e-005	4.288475e-002
4.312847544607041e-002	4.499240e-002	4.381230e-002	8.021897e-005	4.531119e-002
4.410503794607041e-002	4.728282e-002	4.604593e-002	8.203537e-005	4.746833e-002
4.515997453705161e-002	4.923976e-002	4.813533e-002	8.399755e-005	4.933720e-002
4.604000724121050e-002	5.021551e-002	4.938802e-002	8.563441e-005	5.031216e-002
4.703518496593532e-002	5.060921e-002	5.019835e-002	8.748544e-005	5.078510e-002
4.783573363664351e-002	5.049783e-002	5.044737e-002	8.897446e-005	5.078585e-002
4.865503689211910e-002	5.006536e-002	5.036463e-002	9.049837e-005	5.050407e-002
4.919594680038780e-002	4.956736e-002	5.009559e-002	9.150446e-005	5.013078e-002
4.973685670865650e-002	4.910370e-002	4.980362e-002	9.251055e-005	4.978676e-002
5.027776661692520e-002	4.867438e-002	4.948873e-002	9.351665e-005	4.947202e-002
5.081867652519390e-002	4.827940e-002	4.915092e-002	9.452274e-005	4.918654e-002
5.135958643346261e-002	4.791876e-002	4.879018e-002	9.552883e-005	4.893034e-002
5.190049634173130e-002	4.759247e-002	4.840652e-002	9.653492e-005	4.870341e-002
5.244140625000000e-002	4.730052e-002	4.799994e-002	9.754101e-005	4.850575e-002
5.349419684445284e-002	4.733004e-002	4.764863e-002	9.949921e-005	4.864252e-002
5.437364440177623e-002	4.801033e-002	4.782469e-002	1.011350e-004	4.932611e-002
5.536931536656873e-002	4.948661e-002	4.860706e-002	1.029869e-004	5.071174e-002
5.612711712212672e-002	5.101048e-002	4.956665e-002	1.043964e-004	5.211321e-002
5.695443033102667e-002	5.298458e-002	5.092844e-002	1.059352e-004	5.391227e-002
5.771080084635368e-002	5.500049e-002	5.242736e-002	1.073421e-004	5.574034e-002
5.864240350274526e-002	5.759491e-002	5.448900e-002	1.090749e-004	5.809018e-002
6.000000000000000e-002	6.128142e-002	5.762530e-002	1.116000e-004	6.143646e-002
6.068359375000000e-002	6.251756e-002	5.897311e-002	1.122357e-004	6.254818e-002
6.190250538100389e-002	6.413151e-002	6.079159e-002	1.133693e-004	6.403061e-002
6.239419613748049e-002	6.445929e-002	6.126431e-002	1.138266e-004	6.435588e-002
6.288588689395709e-002	6.463450e-002	6.160045e-002	1.142839e-004	6.455208e-002
6.337757765043370e-002	6.465714e-002	6.180002e-002	1.147411e-004	6.461919e-002
6.386926840691030e-002	6.452721e-002	6.186301e-002	1.151984e-004	6.455721e-002
6.436095916338691e-002	6.424472e-002	6.178942e-002	1.156557e-004	6.436616e-002
6.485264991986350e-002	6.380965e-002	6.157926e-002	1.161130e-004	6.404602e-002
6.534434067634011e-002	6.322201e-002	6.123252e-002	1.165702e-004	6.359680e-002
6.632090317634011e-002	6.196661e-002	6.034260e-002	1.174784e-004	6.262669e-002
6.729746567634011e-002	6.063832e-002	5.924876e-002	1.183866e-004	6.159095e-002
6.827402817634011e-002	5.946127e-002	5.812055e-002	1.192948e-004	6.067722e-002
6.925059067634011e-002	5.862037e-002	5.712648e-002	1.202030e-004	6.004031e-002
7.009765625000000e-002	5.810252e-002	5.643468e-002	1.207184e-004	5.964091e-002
7.049687110833043e-002	5.759326e-002	5.602560e-002	1.199758e-004	5.914800e-002
7.089608596666087e-002	5.719196e-002	5.564639e-002	1.192333e-004	5.874511e-002
7.129530082499130e-002	5.689864e-002	5.529707e-002	1.184907e-004	5.843224e-002
7.169451568332173e-002	5.671328e-002	5.497764e-002	1.177482e-004	5.820938e-002
7.209373054165216e-002	5.663589e-002	5.468809e-002	1.170057e-004	5.807654e-002
7.249294539998261e-002	5.666647e-002	5.442843e-002	1.162631e-004	5.803371e-002
7.289216025831304e-002	5.680502e-002	5.419865e-002	1.155206e-004	5.808090e-002
7.450466413898089e-002	5.787693e-002	5.409173e-002	1.125213e-004	5.869919e-002
7.532434637292980e-002	5.861960e-002	5.433218e-002	1.109967e-004	5.917918e-002
7.630090887292980e-002	5.940944e-002	5.468191e-002	1.091803e-004	5.967428e-002
7.727747137292980e-002	5.993322e-002	5.495208e-002	1.073639e-004	5.995094e-002
7.797374513144929e-002	6.003789e-002	5.500800e-002	1.060688e-004	5.992721e-002
7.877332778646239e-002	5.978679e-002	5.484154e-002	1.045816e-004	5.959550e-002
7.916306685880861e-002	5.950801e-002	5.466623e-002	1.039197e-004	5.931187e-002
7.955280593115482e-002	5.908052e-002	5.437554e-002	1.031703e-004	5.889922e-002
7.994254500350105e-002	5.850432e-002	5.396946e-002	1.023334e-004	5.835754e-002
8.033228407584728e-002	5.777940e-002	5.344800e-002	1.014090e-004	5.768684e-002
8.072202314819350e-002	5.690577e-002	5.281116e-002	1.003971e-004	5.688711e-002
8.111176222053972e-002	5.588343e-002	5.205893e-002	9.929769e-005	5.595836e-002
8.150150129288594e-002	5.471237e-002	5.119133e-002	9.811081e-005	5.490059e-002
8.226496844317462e-002	5.241238e-002	4.931077e-002	9.598074e-005	5.284207e-002
8.324153094317462e-002	4.927097e-002	4.660586e-002	9.325613e-005	5.004675e-002
8.421809344317462e-002	4.612145e-002	4.374934e-002	9.053152e-005	4.724393e-002
8.519465594317462e-002	4.318343e-002	4.091261e-002	8.780691e-005	4.461045e-002
8.617121844317462e-002	4.058676e-002	3.822779e-002	8.508230e-005	4.225048e-002
8.694106775185828e-002	3.892910e-002	3.634001e-002	8.293442e-005	4.070162e-002
8.773759887994914e-002	3.771087e-002	3.472897e-002	8.071210e-005	3.949388e-002
8.878289925070462e-002	3.684537e-002	3.318106e-002	7.779571e-005	3.848946e-002
9.000000000000000e-002	3.654570e-002	3.198084e-002	7.440000e-005	3.787971e-002
9.044997194757250e-002	3.649197e-002	3.169896e-002	7.272611e-005	3.765546e-002
9.089994389514500e-002	3.643989e-002	3.142426e-002	7.105221e-005	3.743311e-002
9.134991584271750e-002	3.638947e-002	3.115677e-002	6.937832e-005	3.721266e-002
9.179988779028998e-002	3.634069e-002	3.089646e-002	6.770442e-005	3.699411e-002
9.224985973786248e-002	3.629357e-002	3.064335e-002	6.603053e-005	3.677746e-002
9.269983168543498e-002	3.624810e-002	3.039744e-002	6.435663e-005	3.656271e-002
9.314980363300748e-002	3.620429e-002	3.015872e-002	6.268273e-005	3.634986e-002
9.399944506366191e-002	3.582288e-002	2.959790e-002	5.952206e-005	3.571350e-002
9.467517064687978e-002	3.526198e-002	2.902116e-002	5.700836e-005	3.500608e-002
9.547799351885430e-002	3.423376e-002	2.811939e-002	5.402186e-005	3.388355e-002
9.643853932556079e-002	3.231963e-002	2.657362e-002	5.044863e-005	3.200939e-002
9.706551090345932e-002	3.071740e-002	2.529912e-002	4.811630e-005	3.051230e-002
9.771233217600803e-002	2.883554e-002	2.379780e-002	4.571012e-005	2.879020e-002
9.831665532610766e-002	2.686659e-002	2.220948e-002	4.346204e-005	2.701767e-002
9.905395073483458e-002	2.425996e-002	2.006773e-002	4.071930e-005	2.469602e-002
1.000976562500000e-001	2.038085e-002	1.680105e-002	3.683672e-005	2.126232e-002
1.006835937500000e-001	1.819055e-002	1.486868e-002	3.465703e-005	1.932402e-002
1.014648437500000e-001	1.541045e-002	1.232147e-002	3.175078e-005	1.684431e-002
1.024414062500000e-001	1.221694e-002	9.254268e-003	2.811797e-005	1.395819e-002
1.031556057323084e-001	1.014066e-002	7.143068e-003	2.546115e-005	1.204528e-002
1.034941968444529e-001	9.274633e-003	6.211230e-003	2.420159e-005	1.122866e-002
1.037469966270618e-001	8.696918e-003	5.559858e-003	2.326117e-005	1.067129e-002
1.040509782976596e-001	8.067668e-003	4.821225e-003	2.213036e-005	1.005064e-002
1.043736444017762e-001	7.472401e-003	4.088421e-003	2.093004e-005	9.446864e-003
1.047535604224526e-001	6.880632e-003	3.305566e-003	1.951676e-005	8.818631e-003
1.053693153665687e-001	6.140354e-003	2.205255e-003	1.722615e-005	7.966461e-003
1.061515592410602e-001	5.506983e-003	1.060067e-003	1.431620e-005	7.117101e-003
1.069419201521237e-001	5.174306e-003	1.835923e-004	1.137606e-005	6.492754e-003
1.079184826521237e-001	5.037575e-003	-6.018852e-004	7.743244e-006	5.930553e-003
1.086983691740792e-001	5.009853e-003	-1.074025e-003	4.842067e-006	5.544227e-003
1.095537349411492e-001	4.944807e-003	-1.517019e-003	1.660106e-006	5.095469e-003
1.100000000000000e-001	4.861587e-003	-1.747552e-003	0.000000e+000	4.824440e-003
1.102475977148966e-001	4.979733e-003	-1.851605e-003	-4.605317e-007	4.852341e-003
1.105777280014253e-001	5.102064e-003	-1.943219e-003	-1.074574e-006	4.867046e-003
1.110510802433365e-001	5.173839e-003	-2.037891e-003	-1.955009e-006	4.810610e-003
1.116367909453509e-001	5.102742e-003	-2.157392e-003	-3.044431e-006	4.621093e-003
1.120244407906086e-001	4.943883e-003	-2.268500e-003	-3.765460e-006	4.412026e-003
1.123194514149244e-001	4.739295e-003	-2.391785e-003	-4.314179e-006	4.190465e-003
1.126828058631598e-001	4.395932e-003	-2.596515e-003	-4.990019e-006	3.849580e-003
1.130475752757207e-001	3.946713e-003	-2.869950e-003	-5.668490e-006	3.429678e-003
1.136391886133114e-001	3.017475e-003	-3.454310e-003	-6.768891e-006	2.599601e-003
1.142997543297925e-001	1.742857e-003	-4.286973e-003	-7.997543e-006	1.496917e-003
1.149570166797595e-001	2.426650e-004	-5.307305e-003	-9.220051e-006	2.280900e-004
1.156302910417620e-001	-1.485891e-003	-6.531664e-003	-1.047234e-005	-1.213238e-003
1.163542044966344e-001	-3.475901e-003	-8.001030e-003	-1.181882e-005	-2.859670e-003
1.171076076139702e-001	-5.580259e-003	-9.631381e-003	-1.322015e-005	-4.597518e-003
1.180841701139702e-001	-8.180662e-003	-1.176756e-002	-1.503656e-005	-6.756138e-003
1.190607326139702e-001	-1.048346e-002	-1.380189e-002	-1.685296e-005	-8.694627e-003
1.198257609379284e-001	-1.201745e-002	-1.526835e-002	-1.827592e-005	-1.001350e-002
1.200867962176678e-001	-1.240847e-002	-1.571024e-002	-1.868072e-005	-1.035672e-002
1.206075735236748e-001	-1.281962e-002	-1.639003e-002	-1.916504e-005	-1.072667e-002
1.209992514075220e-001	-1.301537e-002	-1.678205e-002	-1.952930e-005	-1.092215e-002
1.213534328428543e-001	-1.308746e-002	-1.703796e-002	-1.985869e-005	-1.102312e-002
1.219281311514405e-001	-1.299958e-002	-1.727542e-002	-2.039316e-005	-1.103888e-002
1.226896865806131e-001	-1.258632e-002	-1.733754e-002	-2.110141e-005	-1.084528e-002
1.235024987503059e-001	-1.182124e-002	-1.711470e-002	-2.185732e-005	-1.040457e-002
1.244790612503059e-001	-1.060446e-002	-1.654068e-002	-2.276553e-005	-9.660373e-003
1.254556237503059e-001	-9.274293e-003	-1.576708e-002	-2.367373e-005	-8.835218e-003
1.264321862503059e-001	-8.037375e-003	-1.493114e-002	-2.458193e-005	-8.078628e-003
1.272580895706935e-001	-7.220182e-003	-1.428850e-002	-2.535002e-005	-7.604474e-003
1.279419539970788e-001	-6.801353e-003	-1.387546e-002	-2.598602e-005	-7.397102e-003
1.285249163971048e-001	-6.650462e-003	-1.363469e-002	-2.652817e-005	-7.367534e-003
1.287796609643181e-001	-6.663185e-003	-1.357585e-002	-2.676508e-005	-7.410505e-003
1.290958026438694e-001	-6.759466e-003	-1.355280e-002	-2.705910e-005	-7.520809e-003
1.293903225264958e-001	-6.915325e-003	-1.357442e-002	-2.733300e-005	-7.670246e-003
1.295391378522265e-001	-7.031331e-003	-1.360181e-002	-2.751618e-005	-7.778800e-003
1.296879531779572e-001	-7.148029e-003	-1.363666e-002	-2.766530e-005	-7.882804e-003
1.298367685036879e-001	-7.265417e-003	-1.367897e-002	-2.778036e-005	-7.982258e-003
1.299855838294187e-001	-7.383496e-003	-1.372873e-002	-2.786136e-005	-8.077161e-003
1.301343991551494e-001	-7.502266e-003	-1.378595e-002	-2.790830e-005	-8.167514e-003
1.302832144808801e-001	-7.621726e-003	-1.385062e-002	-2.792118e-005	-8.253317e-003
1.304320298066108e-001	-7.741877e-003	-1.392275e-002	-2.790000e-005	-8.334569e-003
1.308924020668842e-001	-8.235227e-003	-1.416475e-002	-2.790000e-005	-8.680723e-003
1.315925421502822e-001	-9.182086e-003	-1.463131e-002	-2.790000e-005	-9.346421e-003
1.323522392355668e-001	-1.041612e-002	-1.528053e-002	-2.790000e-005	-1.021478e-002
1.331009387892605e-001	-1.177254e-002	-1.605665e-002	-2.790000e-005	-1.116919e-002
1.338321022098115e-001	-1.312482e-002	-1.690079e-002	-2.790000e-005	-1.212067e-002
1.348086647098115e-001	-1.479143e-002	-1.804010e-002	-2.790000e-005	-1.329371e-002
1.357852272098115e-001	-1.615818e-002	-1.907915e-002	-2.790000e-005	-1.425536e-002
1.364930942562176e-001	-1.688109e-002	-1.970976e-002	-2.790000e-005	-1.476348e-002
1.370826437542571e-001	-1.720923e-002	-2.008493e-002	-2.790000e-005	-1.499465e-002
1.377080268527041e-001	-1.725368e-002	-2.029659e-002	-2.790000e-005	-1.502907e-002
1.380886000375407e-001	-1.712974e-002	-2.032620e-002	-2.790000e-005	-1.494550e-002
1.387054008601463e-001	-1.671179e-002	-2.022318e-002	-2.790000e-005	-1.465971e-002
1.394651511251683e-001	-1.592462e-002	-1.989610e-002	-2.790000e-005	-1.411937e-002
1.402546412923751e-001	-1.492769e-002	-1.934535e-002	-2.813682e-005	-1.347082e-002
1.412732064618752e-001	-1.358174e-002	-1.851355e-002	-2.908408e-005	-1.269342e-002
1.422497689618752e-001	-1.224004e-002	-1.768348e-002	-2.999228e-005	-1.190925e-002
1.432263314618752e-001	-1.102347e-002	-1.686769e-002	-3.090049e-005	-1.121070e-002
1.439563702831944e-001	-1.032343e-002	-1.632993e-002	-3.157942e-005	-1.083326e-002
1.446285051539235e-001	-9.929040e-003	-1.595001e-002	-3.220451e-005	-1.065777e-002
1.452079246377320e-001	-9.787371e-003	-1.572681e-002	-3.274337e-005	-1.064218e-002
1.454666686565834e-001	-9.802029e-003	-1.567125e-002	-3.298400e-005	-1.068838e-002
1.460506321299376e-001	-1.004837e-002	-1.567503e-002	-3.352709e-005	-1.093757e-002
1.464370123334166e-001	-1.036096e-002	-1.577379e-002	-3.388642e-005	-1.120396e-002
1.470630492754202e-001	-1.107933e-002	-1.607785e-002	-3.446863e-005	-1.177950e-002
1.477401103265532e-001	-1.210608e-002	-1.658720e-002	-3.509830e-005	-1.257162e-002
1.484349779370903e-001	-1.340728e-002	-1.730379e-002	-3.574453e-005	-1.355249e-002
1.491469389657950e-001	-1.493485e-002	-1.821185e-002	-3.640665e-005	-1.468930e-002
1.500800360629424e-001	-1.709491e-002	-1.957762e-002	-3.727443e-005	-1.628572e-002
1.505602524405965e-001	-1.822028e-002	-2.034702e-002	-3.772103e-005	-1.711601e-002
1.512005409441354e-001	-1.963148e-002	-2.136348e-002	-3.831650e-005	-1.816507e-002
1.521771034441354e-001	-2.152891e-002	-2.283008e-002	-3.922471e-005	-1.959601e-002
1.530482319332885e-001	-2.291836e-002	-2.401114e-002	-4.003485e-005	-2.066913e-002
1.536875773700527e-001	-2.362202e-002	-2.471841e-002	-4.062945e-005	-2.124453e-002
1.543467458720433e-001	-2.399891e-002	-2.524512e-002	-4.124247e-005	-2.160607e-002
1.547098060814425e-001	-2.406562e-002	-2.544688e-002	-4.158012e-005	-2.171184e-002
1.552986909835507e-001	-2.396525e-002	-2.563571e-002	-4.212778e-005	-2.174495e-002
1.560545480876268e-001	-2.354022e-002	-2.566808e-002	-4.283073e-005	-2.159054e-002
1.568811426454589e-001	-2.274763e-002	-2.544709e-002	-4.359946e-005	-2.120342e-002
1.578577051454589e-001	-2.152139e-002	-2.491476e-002	-4.450767e-005	-2.055274e-002
1.588342676454589e-001	-2.019096e-002	-2.420526e-002	-4.541587e-005	-1.983257e-002
1.600000000000000e-001	-1.867989e-002	-2.327584e-002	-4.650000e-005	-1.902496e-002
1.606835937500000e-001	-1.808322e-002	-2.281446e-002	-4.713574e-005	-1.874360e-002
1.612416722964608e-001	-1.778135e-002	-2.252604e-002	-4.765475e-005	-1.863469e-002
1.618307873119569e-001	-1.762806e-002	-2.230568e-002	-4.820263e-005	-1.862734e-002
1.623873025497052e-001	-1.772131e-002	-2.222744e-002	-4.872019e-005	-1.877517e-002
1.630887046023076e-001	-1.818764e-002	-2.233604e-002	-4.937249e-005	-1.918737e-002
1.637055695137579e-001	-1.888794e-002	-2.261675e-002	-4.994618e-005	-1.973780e-002
1.643803052900122e-001	-1.991101e-002	-2.310110e-002	-5.057368e-005	-2.050653e-002
1.651814608305043e-001	-2.142048e-002	-2.389700e-002	-5.131876e-005	-2.161020e-002
